
T0534 000:082 SEGGER J-Link V6.14b Log File (0001ms, 0033ms total)
T0534 000:082 DLL Compiled: Mar  9 2017 08:46:04 (0001ms, 0033ms total)
T0534 000:082 Logging started @ 2022-06-16 10:50 (0001ms, 0033ms total)
T0534 000:083 JLINK_SetWarnOutHandler(...) (0000ms, 0033ms total)
T0534 000:083 JLINK_OpenEx(...)
Firmware: J-Link V9 compiled May  7 2021 16:26:12
Hardware: V9.40
S/N: 59419609
Feature(s): RDI, GDB, FlashDL, FlashBP, JFlashWEBSRV Webserver running on local port 19080 (0015ms, 0048ms total)
T0534 000:083   returns O.K. (0015ms, 0048ms total)
T0534 000:098 JLINK_SetErrorOutHandler(...) (0000ms, 0048ms total)
T0534 000:098 JLINK_ExecCommand("ProjectFile = "C:\Users\lagrange\Desktop\hero615\hero\Hero-chassis\Hero_Chassis\MDK-ARM\JLinkSettings.ini"", ...). Device "ARM9" selected.  returns 0x00 (0103ms, 0151ms total)
T0534 000:205 JLINK_ExecCommand("Device = STM32F407IGHx", ...). Device "STM32F407IG" selected.  returns 0x00 (0008ms, 0159ms total)
T0534 000:213 JLINK_ExecCommand("DisableConnectionTimeout", ...).   returns 0x01 (0001ms, 0160ms total)
T0534 000:214 JLINK_GetHardwareVersion()  returns 0x16F30 (0000ms, 0160ms total)
T0534 000:214 JLINK_GetDLLVersion()  returns 61402 (0000ms, 0160ms total)
T0534 000:214 JLINK_GetFirmwareString(...) (0000ms, 0160ms total)
T0534 000:229 JLINK_GetDLLVersion()  returns 61402 (0001ms, 0161ms total)
T0534 000:230 JLINK_GetCompileDateTime() (0000ms, 0161ms total)
T0534 000:234 JLINK_GetFirmwareString(...) (0000ms, 0161ms total)
T0534 000:238 JLINK_GetHardwareVersion()  returns 0x16F30 (0000ms, 0161ms total)
T0534 000:255 JLINK_TIF_Select(JLINKARM_TIF_SWD)  returns 0x00 (0001ms, 0162ms total)
T0534 000:256 JLINK_SetSpeed(500) (0000ms, 0162ms total)
T0534 000:256 JLINK_GetId() >0x108 TIF>Found SWD-DP with ID 0x2BA01477 >0x0D TIF> >0x28 TIF> >0x0D TIF> >0x28 TIF> >0x0D TIF> >0x28 TIF> >0x0D TIF> >0x28 TIF> >0x0D TIF> >0x21 TIF> >0x0D TIF> >0x28 TIF> >0x0D TIF> >0x28 TIF> >0x0D TIF> >0x28 TIF> >0x0D TIF> >0x21 TIF> >0x0D TIF> >0x21 TIF> >0x0D TIF> >0x28 TIF> >0x0D TIF> >0x21 TIF> >0x0D TIF> >0x21 TIF> >0x0D TIF> >0x28 TIF> >0x0D TIF> >0x28 TIF> >0x0D TIF> >0x28 TIF> >0x0D TIF> >0x21 TIF> >0x0D TIF> >0x21 TIF> >0x0D TIF> >0x28 TIF> >0x0D TIF>
 >0x28 TIF> >0x0D TIF> >0x28 TIF> >0x0D TIF> >0x21 TIF> >0x0D TIF> >0x21 TIF> >0x0D TIF> >0x28 TIF> >0x0D TIF> >0x21 TIF> >0x0D TIF> >0x21 TIF> >0x0D TIF> >0x28 TIF> >0x0D TIF> >0x21 TIF> >0x0D TIF> >0x21 TIF> >0x108 TIF>Found SWD-DP with ID 0x2BA01477 >0x0D TIF> >0x28 TIF> >0x0D TIF> >0x28 TIF> >0x0D TIF> >0x28 TIF> >0x0D TIF> >0x28 TIF> >0x0D TIF> >0x21 TIF> >0x0D TIF> >0x28 TIF> >0x0D TIF> >0x28 TIF> >0x0D TIF> >0x21 TIF> >0x0D TIF> >0x21 TIF> >0x0D TIF> >0x21 TIF>AP-IDR: 0x24770011, Type: AHB-AP
AHB-AP ROM: 0xE00FF000 (Base addr. of first ROM table) >0x0D TIF> >0x28 TIF> >0x0D TIF> >0x28 TIF> >0x0D TIF> >0x28 TIF> >0x0D TIF> >0x21 TIF> >0x0D TIF> >0x21 TIF> >0x0D TIF> >0x28 TIF> >0x0D TIF> >0x21 TIF> >0x0D TIF> >0x21 TIF>Found Cortex-M4 r0p1, Little endian. -- CPU_ReadMem(4 bytes @ 0xE000EDF0) -- CPU_WriteMem(4 bytes @ 0xE000EDF0) -- CPU_ReadMem(4 bytes @ 0xE0002000)FPUnit: 6 code (BP) slots and 2 literal slots -- CPU_ReadMem(4 bytes @ 0xE000EDFC) -- CPU_WriteMem(4 bytes @ 0xE000EDFC)
 -- CPU_ReadMem(4 bytes @ 0xE0001000) -- CPU_WriteMem(4 bytes @ 0xE0001000) -- CPU_ReadMem(4 bytes @ 0xE000ED88) -- CPU_WriteMem(4 bytes @ 0xE000ED88) -- CPU_ReadMem(4 bytes @ 0xE000ED88) -- CPU_WriteMem(4 bytes @ 0xE000ED88)CoreSight components:ROMTbl 0 @ E00FF000 -- CPU_ReadMem(16 bytes @ 0xE00FF000) -- CPU_ReadMem(16 bytes @ 0xE000EFF0) -- CPU_ReadMem(16 bytes @ 0xE000EFE0)ROMTbl 0 [0]: FFF0F000, CID: B105E00D, PID: 000BB00C SCS -- CPU_ReadMem(16 bytes @ 0xE0001FF0)
 -- CPU_ReadMem(16 bytes @ 0xE0001FE0)ROMTbl 0 [1]: FFF02000, CID: B105E00D, PID: 003BB002 DWT -- CPU_ReadMem(16 bytes @ 0xE0002FF0) -- CPU_ReadMem(16 bytes @ 0xE0002FE0)ROMTbl 0 [2]: FFF03000, CID: B105E00D, PID: 002BB003 FPB -- CPU_ReadMem(16 bytes @ 0xE0000FF0) -- CPU_ReadMem(16 bytes @ 0xE0000FE0)ROMTbl 0 [3]: FFF01000, CID: B105E00D, PID: 003BB001 ITM -- CPU_ReadMem(16 bytes @ 0xE00FF010) -- CPU_ReadMem(16 bytes @ 0xE0040FF0) -- CPU_ReadMem(16 bytes @ 0xE0040FE0)
ROMTbl 0 [4]: FFF41000, CID: B105900D, PID: 000BB9A1 TPIU -- CPU_ReadMem(16 bytes @ 0xE0041FF0) -- CPU_ReadMem(16 bytes @ 0xE0041FE0)ROMTbl 0 [5]: FFF42000, CID: B105900D, PID: 000BB925 ETM >0x0D TIF> >0x21 TIF>  returns 0x2BA01477 (0121ms, 0283ms total)
T0534 000:377 JLINK_GetDLLVersion()  returns 61402 (0000ms, 0283ms total)
T0534 000:377 JLINK_CORE_GetFound()  returns 0xE0000FF (0000ms, 0283ms total)
T0534 000:377 JLINK_GetDebugInfo(0x100 = JLINKARM_ROM_TABLE_ADDR_INDEX) -- Value=0xE00FF000  returns 0x00 (0000ms, 0283ms total)
T0534 000:382 JLINK_GetDebugInfo(0x100 = JLINKARM_ROM_TABLE_ADDR_INDEX) -- Value=0xE00FF000  returns 0x00 (0000ms, 0283ms total)
T0534 000:382 JLINK_GetDebugInfo(0x101 = JLINKARM_DEBUG_INFO_ETM_ADDR_INDEX) -- Value=0xE0041000  returns 0x00 (0000ms, 0283ms total)
T0534 000:382 JLINK_GetDebugInfo(0x102 = JLINKARM_DEBUG_INFO_MTB_ADDR_INDEX) -- Value=0x00000000  returns 0x00 (0000ms, 0283ms total)
T0534 000:382 JLINK_GetDebugInfo(0x103 = JLINKARM_DEBUG_INFO_TPIU_ADDR_INDEX) -- Value=0xE0040000  returns 0x00 (0000ms, 0283ms total)
T0534 000:382 JLINK_GetDebugInfo(0x104 = JLINKARM_DEBUG_INFO_ITM_ADDR_INDEX) -- Value=0xE0000000  returns 0x00 (0000ms, 0283ms total)
T0534 000:382 JLINK_GetDebugInfo(0x105 = JLINKARM_DEBUG_INFO_DWT_ADDR_INDEX) -- Value=0xE0001000  returns 0x00 (0000ms, 0283ms total)
T0534 000:382 JLINK_GetDebugInfo(0x106 = JLINKARM_DEBUG_INFO_FPB_ADDR_INDEX) -- Value=0xE0002000  returns 0x00 (0000ms, 0283ms total)
T0534 000:382 JLINK_GetDebugInfo(0x107 = JLINKARM_DEBUG_INFO_NVIC_ADDR_INDEX) -- Value=0xE000E000  returns 0x00 (0000ms, 0283ms total)
T0534 000:382 JLINK_GetDebugInfo(0x10C = JLINKARM_DEBUG_INFO_DBG_ADDR_INDEX) -- Value=0xE000EDF0  returns 0x00 (0000ms, 0283ms total)
T0534 000:383 JLINK_ReadMemU32(0xE000EF40, 0x0001 Items, ...) -- CPU is running -- CPU_ReadMem(4 bytes @ 0xE000EF40) - Data: 21 00 11 10  returns 0x01 (0001ms, 0285ms total)
T0534 000:384 JLINK_ReadMemU32(0xE000EF44, 0x0001 Items, ...) -- CPU is running -- CPU_ReadMem(4 bytes @ 0xE000EF44) - Data: 11 00 00 11  returns 0x01 (0001ms, 0286ms total)
T0534 000:385 JLINK_ReadMemU32(0xE000ED00, 0x0001 Items, ...) -- CPU is running -- CPU_ReadMem(4 bytes @ 0xE000ED00) - Data: 41 C2 0F 41  returns 0x01 (0001ms, 0287ms total)
T0534 000:386 JLINK_SetResetType(JLINKARM_CM3_RESET_TYPE_NORMAL)  returns JLINKARM_CM3_RESET_TYPE_NORMAL (0000ms, 0287ms total)
T0534 000:386 JLINK_Reset() -- CPU is running -- CPU_WriteMem(4 bytes @ 0xE000EDF0) -- CPU is running -- CPU_WriteMem(4 bytes @ 0xE000EDFC) >0x35 TIF> -- CPU is running -- CPU_WriteMem(4 bytes @ 0xE000ED0C) >0x0D TIF> >0x28 TIF> -- CPU is running -- CPU_ReadMem(4 bytes @ 0xE000EDF0) -- CPU is running -- CPU_ReadMem(4 bytes @ 0xE000EDF0) -- CPU is running -- CPU_WriteMem(4 bytes @ 0xE000EDF0) -- CPU is running -- CPU_WriteMem(4 bytes @ 0xE000EDFC) -- CPU is running -- CPU_ReadMem(4 bytes @ 0xE000EDF0)
 -- CPU_WriteMem(4 bytes @ 0xE0002000) -- CPU_ReadMem(4 bytes @ 0xE000EDFC) -- CPU_ReadMem(4 bytes @ 0xE0001000) (0083ms, 0370ms total)
T0534 000:469 JLINK_Halt()  returns 0x00 (0000ms, 0370ms total)
T0534 000:469 JLINK_IsHalted()  returns TRUE (0000ms, 0370ms total)
T0534 000:469 JLINK_ReadMemU32(0xE000EDF0, 0x0001 Items, ...) -- CPU_ReadMem(4 bytes @ 0xE000EDF0) - Data: 03 00 03 00  returns 0x01 (0001ms, 0371ms total)
T0534 000:470 JLINK_WriteU32(0xE000EDF0, 0xA05F0003) -- CPU_WriteMem(4 bytes @ 0xE000EDF0)  returns 0x00 (0001ms, 0372ms total)
T0534 000:471 JLINK_WriteU32(0xE000EDFC, 0x01000000) -- CPU_WriteMem(4 bytes @ 0xE000EDFC)  returns 0x00 (0001ms, 0373ms total)
T0534 000:491 JLINK_GetHWStatus(...)  returns 0x00 (0000ms, 0373ms total)
T0534 000:503 JLINK_GetNumBPUnits(Type = 0xFFFFFF00)  returns 0x06 (0000ms, 0373ms total)
T0534 000:503 JLINK_GetNumBPUnits(Type = 0xF0)  returns 0x2000 (0000ms, 0373ms total)
T0534 000:503 JLINK_GetNumWPUnits()  returns 0x04 (0000ms, 0373ms total)
T0534 000:519 JLINK_GetSpeed()  returns 0x1F4 (0000ms, 0374ms total)
T0534 000:529 JLINK_ReadMemU32(0xE000E004, 0x0001 Items, ...) -- CPU_ReadMem(4 bytes @ 0xE000E004) - Data: 02 00 00 00  returns 0x01 (0001ms, 0375ms total)
T0534 000:530 JLINK_ReadMemU32(0xE000E004, 0x0001 Items, ...) -- CPU_ReadMem(4 bytes @ 0xE000E004) - Data: 02 00 00 00  returns 0x01 (0001ms, 0376ms total)
T0534 000:531 JLINK_WriteMem(0xE0001000, 0x001C Bytes, ...) - Data: 01 00 00 00 00 00 00 00 00 00 00 00 00 00 00 00 ... -- CPU_WriteMem(28 bytes @ 0xE0001000)  returns 0x1C (0002ms, 0378ms total)
T0534 000:533 JLINK_ReadMem (0xE0001000, 0x001C Bytes, ...) -- CPU_ReadMem(28 bytes @ 0xE0001000) - Data: 01 00 00 40 00 00 00 00 00 00 00 00 00 00 00 00 ...  returns 0x00 (0001ms, 0379ms total)
T0534 000:534 JLINK_Halt()  returns 0x00 (0000ms, 0379ms total)
T0534 000:534 JLINK_IsHalted()  returns TRUE (0000ms, 0379ms total)
T0534 000:537 JLINK_WriteMem(0x20000000, 0x0180 Bytes, ...) - Data: 00 BE 0A E0 0D 78 2D 06 68 40 08 24 40 00 00 D3 ... -- CPU_WriteMem(384 bytes @ 0x20000000)  returns 0x180 (0010ms, 0389ms total)
T0534 000:548 JLINK_WriteReg(R0, 0x08000000)  returns 0x00 (0000ms, 0390ms total)
T0534 000:548 JLINK_WriteReg(R1, 0x00B71B00)  returns 0x00 (0000ms, 0390ms total)
T0534 000:548 JLINK_WriteReg(R2, 0x00000001)  returns 0x00 (0000ms, 0390ms total)
T0534 000:548 JLINK_WriteReg(R3, 0x00000000)  returns 0x00 (0000ms, 0390ms total)
T0534 000:548 JLINK_WriteReg(R4, 0x00000000)  returns 0x00 (0000ms, 0390ms total)
T0534 000:548 JLINK_WriteReg(R5, 0x00000000)  returns 0x00 (0000ms, 0390ms total)
T0534 000:548 JLINK_WriteReg(R6, 0x00000000)  returns 0x00 (0000ms, 0390ms total)
T0534 000:548 JLINK_WriteReg(R7, 0x00000000)  returns 0x00 (0000ms, 0390ms total)
T0534 000:548 JLINK_WriteReg(R8, 0x00000000)  returns 0x00 (0000ms, 0390ms total)
T0534 000:548 JLINK_WriteReg(R9, 0x2000017C)  returns 0x00 (0000ms, 0390ms total)
T0534 000:548 JLINK_WriteReg(R10, 0x00000000)  returns 0x00 (0000ms, 0390ms total)
T0534 000:548 JLINK_WriteReg(R11, 0x00000000)  returns 0x00 (0001ms, 0391ms total)
T0534 000:549 JLINK_WriteReg(R12, 0x00000000)  returns 0x00 (0000ms, 0391ms total)
T0534 000:549 JLINK_WriteReg(R13 (SP), 0x20001000)  returns 0x00 (0000ms, 0391ms total)
T0534 000:549 JLINK_WriteReg(R14, 0x20000001)  returns 0x00 (0000ms, 0391ms total)
T0534 000:549 JLINK_WriteReg(R15 (PC), 0x20000054)  returns 0x00 (0000ms, 0391ms total)
T0534 000:549 JLINK_WriteReg(XPSR, 0x01000000)  returns 0x00 (0000ms, 0391ms total)
T0534 000:549 JLINK_WriteReg(MSP, 0x20001000)  returns 0x00 (0000ms, 0391ms total)
T0534 000:549 JLINK_WriteReg(PSP, 0x20001000)  returns 0x00 (0000ms, 0391ms total)
T0534 000:549 JLINK_WriteReg(CFBP, 0x00000000)  returns 0x00 (0000ms, 0391ms total)
T0534 000:549 JLINK_SetBPEx(Addr = 0x20000000, Type = 0xFFFFFFF2) -- CPU_ReadMem(2 bytes @ 0x20000000)  returns 0x00000001 (0001ms, 0392ms total)
T0534 000:550 JLINK_Go() -- CPU_WriteMem(2 bytes @ 0x20000000) -- CPU_ReadMem(4 bytes @ 0xE0001000) -- CPU_WriteMem(4 bytes @ 0xE0002008) -- CPU_WriteMem(4 bytes @ 0xE000200C) -- CPU_WriteMem(4 bytes @ 0xE0002010) -- CPU_WriteMem(4 bytes @ 0xE0002014) -- CPU_WriteMem(4 bytes @ 0xE0002018) -- CPU_WriteMem(4 bytes @ 0xE000201C) -- CPU_WriteMem(4 bytes @ 0xE0001004) (0013ms, 0405ms total)
T0534 000:563 JLINK_IsHalted() -- CPU_ReadMem(2 bytes @ 0x20000000)  returns TRUE (0012ms, 0417ms total)
T0534 000:576 JLINK_ReadReg(R15 (PC))  returns 0x20000000 (0000ms, 0405ms total)
T0534 000:576 JLINK_ClrBPEx(BPHandle = 0x00000001)  returns 0x00 (0000ms, 0405ms total)
T0534 000:576 JLINK_ReadReg(R0)  returns 0x00000000 (0000ms, 0405ms total)
T0534 000:576 JLINK_WriteReg(R0, 0x08000000)  returns 0x00 (0000ms, 0405ms total)
T0534 000:576 JLINK_WriteReg(R1, 0x00004000)  returns 0x00 (0000ms, 0405ms total)
T0534 000:576 JLINK_WriteReg(R2, 0x000000FF)  returns 0x00 (0000ms, 0405ms total)
T0534 000:576 JLINK_WriteReg(R3, 0x00000000)  returns 0x00 (0000ms, 0405ms total)
T0534 000:576 JLINK_WriteReg(R4, 0x00000000)  returns 0x00 (0000ms, 0405ms total)
T0534 000:576 JLINK_WriteReg(R5, 0x00000000)  returns 0x00 (0000ms, 0405ms total)
T0534 000:576 JLINK_WriteReg(R6, 0x00000000)  returns 0x00 (0001ms, 0406ms total)
T0534 000:577 JLINK_WriteReg(R7, 0x00000000)  returns 0x00 (0000ms, 0406ms total)
T0534 000:577 JLINK_WriteReg(R8, 0x00000000)  returns 0x00 (0000ms, 0406ms total)
T0534 000:577 JLINK_WriteReg(R9, 0x2000017C)  returns 0x00 (0000ms, 0406ms total)
T0534 000:577 JLINK_WriteReg(R10, 0x00000000)  returns 0x00 (0000ms, 0406ms total)
T0534 000:577 JLINK_WriteReg(R11, 0x00000000)  returns 0x00 (0000ms, 0406ms total)
T0534 000:577 JLINK_WriteReg(R12, 0x00000000)  returns 0x00 (0000ms, 0406ms total)
T0534 000:577 JLINK_WriteReg(R13 (SP), 0x20001000)  returns 0x00 (0000ms, 0406ms total)
T0534 000:577 JLINK_WriteReg(R14, 0x20000001)  returns 0x00 (0000ms, 0406ms total)
T0534 000:577 JLINK_WriteReg(R15 (PC), 0x20000020)  returns 0x00 (0000ms, 0406ms total)
T0534 000:577 JLINK_WriteReg(XPSR, 0x01000000)  returns 0x00 (0000ms, 0406ms total)
T0534 000:577 JLINK_WriteReg(MSP, 0x20001000)  returns 0x00 (0000ms, 0406ms total)
T0534 000:577 JLINK_WriteReg(PSP, 0x20001000)  returns 0x00 (0000ms, 0406ms total)
T0534 000:577 JLINK_WriteReg(CFBP, 0x00000000)  returns 0x00 (0000ms, 0406ms total)
T0534 000:577 JLINK_SetBPEx(Addr = 0x20000000, Type = 0xFFFFFFF2)  returns 0x00000002 (0001ms, 0407ms total)
T0534 000:578 JLINK_Go() -- CPU_ReadMem(4 bytes @ 0xE0001000) (0006ms, 0413ms total)
T0534 000:584 JLINK_IsHalted() -- CPU_ReadMem(2 bytes @ 0x20000000)  returns TRUE (0012ms, 0425ms total)
T0534 000:596 JLINK_ReadReg(R15 (PC))  returns 0x20000000 (0000ms, 0413ms total)
T0534 000:596 JLINK_ClrBPEx(BPHandle = 0x00000002)  returns 0x00 (0001ms, 0414ms total)
T0534 000:597 JLINK_ReadReg(R0)  returns 0x00000001 (0000ms, 0414ms total)
T0534 000:597 JLINK_WriteReg(R0, 0x08000000)  returns 0x00 (0000ms, 0414ms total)
T0534 000:597 JLINK_WriteReg(R1, 0x00004000)  returns 0x00 (0000ms, 0414ms total)
T0534 000:597 JLINK_WriteReg(R2, 0x000000FF)  returns 0x00 (0000ms, 0414ms total)
T0534 000:597 JLINK_WriteReg(R3, 0x00000000)  returns 0x00 (0000ms, 0414ms total)
T0534 000:597 JLINK_WriteReg(R4, 0x00000000)  returns 0x00 (0000ms, 0414ms total)
T0534 000:597 JLINK_WriteReg(R5, 0x00000000)  returns 0x00 (0000ms, 0414ms total)
T0534 000:597 JLINK_WriteReg(R6, 0x00000000)  returns 0x00 (0000ms, 0414ms total)
T0534 000:597 JLINK_WriteReg(R7, 0x00000000)  returns 0x00 (0000ms, 0414ms total)
T0534 000:597 JLINK_WriteReg(R8, 0x00000000)  returns 0x00 (0000ms, 0414ms total)
T0534 000:597 JLINK_WriteReg(R9, 0x2000017C)  returns 0x00 (0000ms, 0414ms total)
T0534 000:597 JLINK_WriteReg(R10, 0x00000000)  returns 0x00 (0000ms, 0414ms total)
T0534 000:597 JLINK_WriteReg(R11, 0x00000000)  returns 0x00 (0001ms, 0415ms total)
T0534 000:598 JLINK_WriteReg(R12, 0x00000000)  returns 0x00 (0000ms, 0415ms total)
T0534 000:598 JLINK_WriteReg(R13 (SP), 0x20001000)  returns 0x00 (0000ms, 0415ms total)
T0534 000:598 JLINK_WriteReg(R14, 0x20000001)  returns 0x00 (0000ms, 0415ms total)
T0534 000:598 JLINK_WriteReg(R15 (PC), 0x200000BC)  returns 0x00 (0000ms, 0415ms total)
T0534 000:598 JLINK_WriteReg(XPSR, 0x01000000)  returns 0x00 (0000ms, 0415ms total)
T0534 000:598 JLINK_WriteReg(MSP, 0x20001000)  returns 0x00 (0000ms, 0415ms total)
T0534 000:598 JLINK_WriteReg(PSP, 0x20001000)  returns 0x00 (0000ms, 0415ms total)
T0534 000:598 JLINK_WriteReg(CFBP, 0x00000000)  returns 0x00 (0000ms, 0415ms total)
T0534 000:598 JLINK_SetBPEx(Addr = 0x20000000, Type = 0xFFFFFFF2)  returns 0x00000003 (0000ms, 0415ms total)
T0534 000:598 JLINK_Go() -- CPU_ReadMem(4 bytes @ 0xE0001000) (0005ms, 0420ms total)
T0534 000:603 JLINK_IsHalted()  returns FALSE (0001ms, 0421ms total)
T0534 000:697 JLINK_IsHalted()  returns FALSE (0001ms, 0421ms total)
T0534 000:701 JLINK_IsHalted()  returns FALSE (0001ms, 0421ms total)
T0534 000:704 JLINK_IsHalted()  returns FALSE (0001ms, 0421ms total)
T0534 000:706 JLINK_IsHalted()  returns FALSE (0001ms, 0421ms total)
T0534 000:709 JLINK_IsHalted()  returns FALSE (0000ms, 0420ms total)
T0534 000:712 JLINK_IsHalted()  returns FALSE (0001ms, 0421ms total)
T0534 000:714 JLINK_IsHalted()  returns FALSE (0001ms, 0421ms total)
T0534 000:717 JLINK_IsHalted()  returns FALSE (0002ms, 0422ms total)
T0534 000:721 JLINK_IsHalted()  returns FALSE (0001ms, 0421ms total)
T0534 000:723 JLINK_IsHalted()  returns FALSE (0002ms, 0422ms total)
T0534 000:727 JLINK_IsHalted()  returns FALSE (0001ms, 0421ms total)
T0534 000:730 JLINK_IsHalted()  returns FALSE (0000ms, 0420ms total)
T0534 000:734 JLINK_IsHalted()  returns FALSE (0001ms, 0421ms total)
T0534 000:737 JLINK_IsHalted()  returns FALSE (0001ms, 0421ms total)
T0534 000:740 JLINK_IsHalted()  returns FALSE (0001ms, 0421ms total)
T0534 000:743 JLINK_IsHalted()  returns FALSE (0001ms, 0421ms total)
T0534 000:746 JLINK_IsHalted()  returns FALSE (0000ms, 0420ms total)
T0534 000:750 JLINK_IsHalted()  returns FALSE (0001ms, 0421ms total)
T0534 000:753 JLINK_IsHalted()  returns FALSE (0001ms, 0421ms total)
T0534 000:756 JLINK_IsHalted()  returns FALSE (0000ms, 0420ms total)
T0534 000:758 JLINK_IsHalted()  returns FALSE (0001ms, 0421ms total)
T0534 000:760 JLINK_IsHalted()  returns FALSE (0001ms, 0421ms total)
T0534 000:790 JLINK_IsHalted()  returns FALSE (0001ms, 0421ms total)
T0534 000:793 JLINK_IsHalted()  returns FALSE (0001ms, 0421ms total)
T0534 000:796 JLINK_IsHalted()  returns FALSE (0002ms, 0422ms total)
T0534 000:800 JLINK_IsHalted()  returns FALSE (0001ms, 0421ms total)
T0534 000:803 JLINK_IsHalted()  returns FALSE (0001ms, 0421ms total)
T0534 000:806 JLINK_IsHalted()  returns FALSE (0000ms, 0420ms total)
T0534 000:808 JLINK_IsHalted()  returns FALSE (0001ms, 0421ms total)
T0534 000:811 JLINK_IsHalted()  returns FALSE (0001ms, 0421ms total)
T0534 000:813 JLINK_IsHalted()  returns FALSE (0001ms, 0421ms total)
T0534 000:816 JLINK_IsHalted()  returns FALSE (0002ms, 0422ms total)
T0534 000:820 JLINK_IsHalted()  returns FALSE (0001ms, 0421ms total)
T0534 000:823 JLINK_IsHalted()  returns FALSE (0001ms, 0421ms total)
T0534 000:826 JLINK_IsHalted()  returns FALSE (0001ms, 0421ms total)
T0534 000:828 JLINK_IsHalted()  returns FALSE (0001ms, 0421ms total)
T0534 000:831 JLINK_IsHalted()  returns FALSE (0001ms, 0421ms total)
T0534 000:834 JLINK_IsHalted()  returns FALSE (0001ms, 0421ms total)
T0534 000:837 JLINK_IsHalted()  returns FALSE (0001ms, 0421ms total)
T0534 000:840 JLINK_IsHalted()  returns FALSE (0001ms, 0421ms total)
T0534 000:843 JLINK_IsHalted()  returns FALSE (0001ms, 0421ms total)
T0534 000:846 JLINK_IsHalted()  returns FALSE (0001ms, 0421ms total)
T0534 000:849 JLINK_IsHalted()  returns FALSE (0001ms, 0421ms total)
T0534 000:852 JLINK_IsHalted()  returns FALSE (0001ms, 0421ms total)
T0534 000:855 JLINK_IsHalted()  returns FALSE (0001ms, 0421ms total)
T0534 000:858 JLINK_IsHalted()  returns FALSE (0001ms, 0421ms total)
T0534 000:861 JLINK_IsHalted()  returns FALSE (0001ms, 0421ms total)
T0534 000:864 JLINK_IsHalted()  returns FALSE (0001ms, 0421ms total)
T0534 000:867 JLINK_IsHalted()  returns FALSE (0001ms, 0421ms total)
T0534 000:870 JLINK_IsHalted()  returns FALSE (0001ms, 0421ms total)
T0534 000:900 JLINK_IsHalted()  returns FALSE (0002ms, 0422ms total)
T0534 000:903 JLINK_IsHalted()  returns FALSE (0002ms, 0422ms total)
T0534 000:907 JLINK_IsHalted()  returns FALSE (0001ms, 0421ms total)
T0534 000:910 JLINK_IsHalted()  returns FALSE (0001ms, 0421ms total)
T0534 000:912 JLINK_IsHalted()  returns FALSE (0002ms, 0422ms total)
T0534 000:915 JLINK_IsHalted()  returns FALSE (0001ms, 0423ms total)
T0534 000:918 JLINK_IsHalted()  returns FALSE (0001ms, 0423ms total)
T0534 000:921 JLINK_IsHalted()  returns FALSE (0001ms, 0423ms total)
T0534 000:924 JLINK_IsHalted()  returns FALSE (0001ms, 0423ms total)
T0534 000:927 JLINK_IsHalted()  returns FALSE (0001ms, 0423ms total)
T0534 000:930 JLINK_IsHalted()  returns FALSE (0001ms, 0423ms total)
T0534 000:933 JLINK_IsHalted()  returns FALSE (0001ms, 0423ms total)
T0534 000:936 JLINK_IsHalted()  returns FALSE (0002ms, 0424ms total)
T0534 000:940 JLINK_IsHalted()  returns FALSE (0001ms, 0423ms total)
T0534 000:943 JLINK_IsHalted()  returns FALSE (0001ms, 0423ms total)
T0534 000:946 JLINK_IsHalted()  returns FALSE (0002ms, 0424ms total)
T0534 000:951 JLINK_IsHalted()  returns FALSE (0001ms, 0423ms total)
T0534 000:954 JLINK_IsHalted()  returns FALSE (0001ms, 0423ms total)
T0534 000:957 JLINK_IsHalted()  returns FALSE (0001ms, 0423ms total)
T0534 000:960 JLINK_IsHalted()  returns FALSE (0001ms, 0423ms total)
T0534 000:963 JLINK_IsHalted()  returns FALSE (0001ms, 0423ms total)
T0534 000:966 JLINK_IsHalted()  returns FALSE (0001ms, 0423ms total)
T0534 000:969 JLINK_IsHalted() -- CPU_ReadMem(2 bytes @ 0x20000000)  returns TRUE (0012ms, 0434ms total)
T0534 000:981 JLINK_ReadReg(R15 (PC))  returns 0x20000000 (0000ms, 0422ms total)
T0534 000:981 JLINK_ClrBPEx(BPHandle = 0x00000003)  returns 0x00 (0000ms, 0422ms total)
T0534 000:981 JLINK_ReadReg(R0)  returns 0x00000000 (0000ms, 0422ms total)
T0534 000:982 JLINK_WriteReg(R0, 0x08004000)  returns 0x00 (0000ms, 0422ms total)
T0534 000:982 JLINK_WriteReg(R1, 0x00004000)  returns 0x00 (0000ms, 0422ms total)
T0534 000:982 JLINK_WriteReg(R2, 0x000000FF)  returns 0x00 (0000ms, 0422ms total)
T0534 000:982 JLINK_WriteReg(R3, 0x00000000)  returns 0x00 (0000ms, 0422ms total)
T0534 000:982 JLINK_WriteReg(R4, 0x00000000)  returns 0x00 (0000ms, 0422ms total)
T0534 000:982 JLINK_WriteReg(R5, 0x00000000)  returns 0x00 (0000ms, 0422ms total)
T0534 000:982 JLINK_WriteReg(R6, 0x00000000)  returns 0x00 (0000ms, 0422ms total)
T0534 000:982 JLINK_WriteReg(R7, 0x00000000)  returns 0x00 (0000ms, 0422ms total)
T0534 000:982 JLINK_WriteReg(R8, 0x00000000)  returns 0x00 (0001ms, 0423ms total)
T0534 000:983 JLINK_WriteReg(R9, 0x2000017C)  returns 0x00 (0000ms, 0423ms total)
T0534 000:983 JLINK_WriteReg(R10, 0x00000000)  returns 0x00 (0000ms, 0423ms total)
T0534 000:983 JLINK_WriteReg(R11, 0x00000000)  returns 0x00 (0000ms, 0423ms total)
T0534 000:983 JLINK_WriteReg(R12, 0x00000000)  returns 0x00 (0000ms, 0423ms total)
T0534 000:983 JLINK_WriteReg(R13 (SP), 0x20001000)  returns 0x00 (0000ms, 0423ms total)
T0534 000:983 JLINK_WriteReg(R14, 0x20000001)  returns 0x00 (0000ms, 0423ms total)
T0534 000:983 JLINK_WriteReg(R15 (PC), 0x20000020)  returns 0x00 (0000ms, 0423ms total)
T0534 000:983 JLINK_WriteReg(XPSR, 0x01000000)  returns 0x00 (0000ms, 0423ms total)
T0534 000:983 JLINK_WriteReg(MSP, 0x20001000)  returns 0x00 (0000ms, 0423ms total)
T0534 000:983 JLINK_WriteReg(PSP, 0x20001000)  returns 0x00 (0000ms, 0423ms total)
T0534 000:983 JLINK_WriteReg(CFBP, 0x00000000)  returns 0x00 (0000ms, 0423ms total)
T0534 000:983 JLINK_SetBPEx(Addr = 0x20000000, Type = 0xFFFFFFF2)  returns 0x00000004 (0000ms, 0423ms total)
T0534 000:983 JLINK_Go() -- CPU_ReadMem(4 bytes @ 0xE0001000) (0006ms, 0429ms total)
T0534 000:990 JLINK_IsHalted() -- CPU_ReadMem(2 bytes @ 0x20000000)  returns TRUE (0012ms, 0442ms total)
T0534 001:002 JLINK_ReadReg(R15 (PC))  returns 0x20000000 (0000ms, 0430ms total)
T0534 001:002 JLINK_ClrBPEx(BPHandle = 0x00000004)  returns 0x00 (0000ms, 0430ms total)
T0534 001:002 JLINK_ReadReg(R0)  returns 0x00000001 (0000ms, 0430ms total)
T0534 001:002 JLINK_WriteReg(R0, 0x08004000)  returns 0x00 (0000ms, 0430ms total)
T0534 001:002 JLINK_WriteReg(R1, 0x00004000)  returns 0x00 (0000ms, 0430ms total)
T0534 001:002 JLINK_WriteReg(R2, 0x000000FF)  returns 0x00 (0000ms, 0430ms total)
T0534 001:003 JLINK_WriteReg(R3, 0x00000000)  returns 0x00 (0000ms, 0431ms total)
T0534 001:003 JLINK_WriteReg(R4, 0x00000000)  returns 0x00 (0000ms, 0431ms total)
T0534 001:003 JLINK_WriteReg(R5, 0x00000000)  returns 0x00 (0000ms, 0431ms total)
T0534 001:003 JLINK_WriteReg(R6, 0x00000000)  returns 0x00 (0000ms, 0431ms total)
T0534 001:003 JLINK_WriteReg(R7, 0x00000000)  returns 0x00 (0000ms, 0431ms total)
T0534 001:003 JLINK_WriteReg(R8, 0x00000000)  returns 0x00 (0000ms, 0431ms total)
T0534 001:003 JLINK_WriteReg(R9, 0x2000017C)  returns 0x00 (0000ms, 0431ms total)
T0534 001:003 JLINK_WriteReg(R10, 0x00000000)  returns 0x00 (0000ms, 0431ms total)
T0534 001:003 JLINK_WriteReg(R11, 0x00000000)  returns 0x00 (0000ms, 0431ms total)
T0534 001:003 JLINK_WriteReg(R12, 0x00000000)  returns 0x00 (0000ms, 0431ms total)
T0534 001:003 JLINK_WriteReg(R13 (SP), 0x20001000)  returns 0x00 (0000ms, 0431ms total)
T0534 001:003 JLINK_WriteReg(R14, 0x20000001)  returns 0x00 (0000ms, 0431ms total)
T0534 001:003 JLINK_WriteReg(R15 (PC), 0x200000BC)  returns 0x00 (0000ms, 0431ms total)
T0534 001:003 JLINK_WriteReg(XPSR, 0x01000000)  returns 0x00 (0000ms, 0431ms total)
T0534 001:004 JLINK_WriteReg(MSP, 0x20001000)  returns 0x00 (0000ms, 0432ms total)
T0534 001:004 JLINK_WriteReg(PSP, 0x20001000)  returns 0x00 (0000ms, 0432ms total)
T0534 001:004 JLINK_WriteReg(CFBP, 0x00000000)  returns 0x00 (0000ms, 0432ms total)
T0534 001:004 JLINK_SetBPEx(Addr = 0x20000000, Type = 0xFFFFFFF2)  returns 0x00000005 (0000ms, 0432ms total)
T0534 001:004 JLINK_Go() -- CPU_ReadMem(4 bytes @ 0xE0001000) (0004ms, 0436ms total)
T0534 001:008 JLINK_IsHalted()  returns FALSE (0003ms, 0439ms total)
T0534 001:039 JLINK_IsHalted()  returns FALSE (0000ms, 0436ms total)
T0534 001:041 JLINK_IsHalted()  returns FALSE (0001ms, 0437ms total)
T0534 001:045 JLINK_IsHalted()  returns FALSE (0001ms, 0438ms total)
T0534 001:047 JLINK_IsHalted()  returns FALSE (0002ms, 0439ms total)
T0534 001:051 JLINK_IsHalted()  returns FALSE (0001ms, 0438ms total)
T0534 001:054 JLINK_IsHalted()  returns FALSE (0001ms, 0438ms total)
T0534 001:056 JLINK_IsHalted()  returns FALSE (0001ms, 0438ms total)
T0534 001:060 JLINK_IsHalted()  returns FALSE (0001ms, 0438ms total)
T0534 001:063 JLINK_IsHalted()  returns FALSE (0001ms, 0438ms total)
T0534 001:066 JLINK_IsHalted()  returns FALSE (0001ms, 0438ms total)
T0534 001:069 JLINK_IsHalted()  returns FALSE (0001ms, 0438ms total)
T0534 001:072 JLINK_IsHalted()  returns FALSE (0000ms, 0437ms total)
T0534 001:075 JLINK_IsHalted()  returns FALSE (0001ms, 0438ms total)
T0534 001:078 JLINK_IsHalted()  returns FALSE (0001ms, 0438ms total)
T0534 001:081 JLINK_IsHalted()  returns FALSE (0001ms, 0438ms total)
T0534 001:084 JLINK_IsHalted()  returns FALSE (0001ms, 0438ms total)
T0534 001:087 JLINK_IsHalted()  returns FALSE (0001ms, 0438ms total)
T0534 001:089 JLINK_IsHalted()  returns FALSE (0002ms, 0439ms total)
T0534 001:114 JLINK_IsHalted()  returns FALSE (0001ms, 0438ms total)
T0534 001:125 JLINK_IsHalted()  returns FALSE (0001ms, 0438ms total)
T0534 001:128 JLINK_IsHalted()  returns FALSE (0001ms, 0438ms total)
T0534 001:131 JLINK_IsHalted()  returns FALSE (0001ms, 0438ms total)
T0534 001:134 JLINK_IsHalted()  returns FALSE (0001ms, 0438ms total)
T0534 001:137 JLINK_IsHalted()  returns FALSE (0001ms, 0438ms total)
T0534 001:140 JLINK_IsHalted()  returns FALSE (0001ms, 0438ms total)
T0534 001:144 JLINK_IsHalted()  returns FALSE (0000ms, 0437ms total)
T0534 001:146 JLINK_IsHalted()  returns FALSE (0001ms, 0438ms total)
T0534 001:149 JLINK_IsHalted()  returns FALSE (0001ms, 0438ms total)
T0534 001:152 JLINK_IsHalted()  returns FALSE (0001ms, 0438ms total)
T0534 001:155 JLINK_IsHalted()  returns FALSE (0001ms, 0438ms total)
T0534 001:158 JLINK_IsHalted()  returns FALSE (0001ms, 0438ms total)
T0534 001:161 JLINK_IsHalted()  returns FALSE (0001ms, 0438ms total)
T0534 001:164 JLINK_IsHalted()  returns FALSE (0001ms, 0438ms total)
T0534 001:167 JLINK_IsHalted()  returns FALSE (0001ms, 0438ms total)
T0534 001:170 JLINK_IsHalted()  returns FALSE (0001ms, 0438ms total)
T0534 001:173 JLINK_IsHalted()  returns FALSE (0001ms, 0438ms total)
T0534 001:175 JLINK_IsHalted()  returns FALSE (0001ms, 0438ms total)
T0534 001:178 JLINK_IsHalted()  returns FALSE (0001ms, 0438ms total)
T0534 001:181 JLINK_IsHalted()  returns FALSE (0001ms, 0438ms total)
T0534 001:184 JLINK_IsHalted()  returns FALSE (0001ms, 0438ms total)
T0534 001:187 JLINK_IsHalted()  returns FALSE (0001ms, 0438ms total)
T0534 001:190 JLINK_IsHalted()  returns FALSE (0001ms, 0438ms total)
T0534 001:193 JLINK_IsHalted()  returns FALSE (0001ms, 0438ms total)
T0534 001:196 JLINK_IsHalted()  returns FALSE (0001ms, 0438ms total)
T0534 001:199 JLINK_IsHalted()  returns FALSE (0001ms, 0438ms total)
T0534 001:202 JLINK_IsHalted()  returns FALSE (0001ms, 0438ms total)
T0534 001:233 JLINK_IsHalted()  returns FALSE (0002ms, 0439ms total)
T0534 001:236 JLINK_IsHalted()  returns FALSE (0002ms, 0439ms total)
T0534 001:240 JLINK_IsHalted()  returns FALSE (0001ms, 0438ms total)
T0534 001:243 JLINK_IsHalted()  returns FALSE (0001ms, 0438ms total)
T0534 001:246 JLINK_IsHalted()  returns FALSE (0001ms, 0438ms total)
T0534 001:249 JLINK_IsHalted()  returns FALSE (0001ms, 0438ms total)
T0534 001:252 JLINK_IsHalted()  returns FALSE (0001ms, 0438ms total)
T0534 001:255 JLINK_IsHalted()  returns FALSE (0001ms, 0438ms total)
T0534 001:258 JLINK_IsHalted()  returns FALSE (0001ms, 0438ms total)
T0534 001:261 JLINK_IsHalted()  returns FALSE (0001ms, 0438ms total)
T0534 001:264 JLINK_IsHalted()  returns FALSE (0001ms, 0438ms total)
T0534 001:267 JLINK_IsHalted()  returns FALSE (0001ms, 0438ms total)
T0534 001:270 JLINK_IsHalted()  returns FALSE (0001ms, 0438ms total)
T0534 001:273 JLINK_IsHalted()  returns FALSE (0001ms, 0438ms total)
T0534 001:276 JLINK_IsHalted()  returns FALSE (0001ms, 0438ms total)
T0534 001:279 JLINK_IsHalted()  returns FALSE (0000ms, 0437ms total)
T0534 001:282 JLINK_IsHalted()  returns FALSE (0001ms, 0438ms total)
T0534 001:285 JLINK_IsHalted()  returns FALSE (0001ms, 0438ms total)
T0534 001:288 JLINK_IsHalted()  returns FALSE (0001ms, 0438ms total)
T0534 001:291 JLINK_IsHalted()  returns FALSE (0001ms, 0438ms total)
T0534 001:294 JLINK_IsHalted()  returns FALSE (0002ms, 0439ms total)
T0534 001:298 JLINK_IsHalted()  returns FALSE (0002ms, 0439ms total)
T0534 001:301 JLINK_IsHalted()  returns FALSE (0002ms, 0439ms total)
T0534 001:304 JLINK_IsHalted()  returns FALSE (0001ms, 0438ms total)
T0534 001:308 JLINK_IsHalted()  returns FALSE (0001ms, 0438ms total)
T0534 001:311 JLINK_IsHalted()  returns FALSE (0001ms, 0438ms total)
T0534 001:343 JLINK_IsHalted()  returns FALSE (0001ms, 0438ms total)
T0534 001:346 JLINK_IsHalted()  returns FALSE (0001ms, 0438ms total)
T0534 001:349 JLINK_IsHalted()  returns FALSE (0002ms, 0439ms total)
T0534 001:352 JLINK_IsHalted()  returns FALSE (0001ms, 0438ms total)
T0534 001:355 JLINK_IsHalted()  returns FALSE (0001ms, 0438ms total)
T0534 001:358 JLINK_IsHalted()  returns FALSE (0001ms, 0438ms total)
T0534 001:361 JLINK_IsHalted()  returns FALSE (0001ms, 0438ms total)
T0534 001:364 JLINK_IsHalted()  returns FALSE (0001ms, 0438ms total)
T0534 001:367 JLINK_IsHalted()  returns FALSE (0001ms, 0438ms total)
T0534 001:369 JLINK_IsHalted()  returns FALSE (0000ms, 0437ms total)
T0534 001:372 JLINK_IsHalted()  returns FALSE (0001ms, 0438ms total)
T0534 001:375 JLINK_IsHalted()  returns FALSE (0000ms, 0437ms total)
T0534 001:378 JLINK_IsHalted()  returns FALSE (0001ms, 0438ms total)
T0534 001:381 JLINK_IsHalted()  returns FALSE (0001ms, 0438ms total)
T0534 001:384 JLINK_IsHalted()  returns FALSE (0001ms, 0438ms total)
T0534 001:387 JLINK_IsHalted()  returns FALSE (0001ms, 0438ms total)
T0534 001:390 JLINK_IsHalted()  returns FALSE (0001ms, 0438ms total)
T0534 001:393 JLINK_IsHalted() -- CPU_ReadMem(2 bytes @ 0x20000000)  returns TRUE (0012ms, 0449ms total)
T0534 001:405 JLINK_ReadReg(R15 (PC))  returns 0x20000000 (0000ms, 0437ms total)
T0534 001:405 JLINK_ClrBPEx(BPHandle = 0x00000005)  returns 0x00 (0000ms, 0437ms total)
T0534 001:405 JLINK_ReadReg(R0)  returns 0x00000000 (0000ms, 0437ms total)
T0534 001:406 JLINK_WriteReg(R0, 0x00000001)  returns 0x00 (0000ms, 0437ms total)
T0534 001:406 JLINK_WriteReg(R1, 0x00004000)  returns 0x00 (0000ms, 0437ms total)
T0534 001:406 JLINK_WriteReg(R2, 0x000000FF)  returns 0x00 (0000ms, 0437ms total)
T0534 001:406 JLINK_WriteReg(R3, 0x00000000)  returns 0x00 (0000ms, 0437ms total)
T0534 001:406 JLINK_WriteReg(R4, 0x00000000)  returns 0x00 (0000ms, 0437ms total)
T0534 001:406 JLINK_WriteReg(R5, 0x00000000)  returns 0x00 (0000ms, 0437ms total)
T0534 001:406 JLINK_WriteReg(R6, 0x00000000)  returns 0x00 (0000ms, 0437ms total)
T0534 001:406 JLINK_WriteReg(R7, 0x00000000)  returns 0x00 (0001ms, 0438ms total)
T0534 001:407 JLINK_WriteReg(R8, 0x00000000)  returns 0x00 (0000ms, 0438ms total)
T0534 001:407 JLINK_WriteReg(R9, 0x2000017C)  returns 0x00 (0000ms, 0438ms total)
T0534 001:407 JLINK_WriteReg(R10, 0x00000000)  returns 0x00 (0000ms, 0438ms total)
T0534 001:407 JLINK_WriteReg(R11, 0x00000000)  returns 0x00 (0000ms, 0438ms total)
T0534 001:407 JLINK_WriteReg(R12, 0x00000000)  returns 0x00 (0000ms, 0438ms total)
T0534 001:407 JLINK_WriteReg(R13 (SP), 0x20001000)  returns 0x00 (0000ms, 0438ms total)
T0534 001:407 JLINK_WriteReg(R14, 0x20000001)  returns 0x00 (0000ms, 0438ms total)
T0534 001:407 JLINK_WriteReg(R15 (PC), 0x20000082)  returns 0x00 (0000ms, 0438ms total)
T0534 001:407 JLINK_WriteReg(XPSR, 0x01000000)  returns 0x00 (0000ms, 0438ms total)
T0534 001:407 JLINK_WriteReg(MSP, 0x20001000)  returns 0x00 (0000ms, 0438ms total)
T0534 001:407 JLINK_WriteReg(PSP, 0x20001000)  returns 0x00 (0000ms, 0438ms total)
T0534 001:407 JLINK_WriteReg(CFBP, 0x00000000)  returns 0x00 (0000ms, 0438ms total)
T0534 001:407 JLINK_SetBPEx(Addr = 0x20000000, Type = 0xFFFFFFF2)  returns 0x00000006 (0001ms, 0439ms total)
T0534 001:408 JLINK_Go() -- CPU_ReadMem(4 bytes @ 0xE0001000) (0007ms, 0446ms total)
T0534 001:415 JLINK_IsHalted() -- CPU_ReadMem(2 bytes @ 0x20000000)  returns TRUE (0013ms, 0459ms total)
T0534 001:428 JLINK_ReadReg(R15 (PC))  returns 0x20000000 (0000ms, 0446ms total)
T0534 001:428 JLINK_ClrBPEx(BPHandle = 0x00000006)  returns 0x00 (0000ms, 0446ms total)
T0534 001:428 JLINK_ReadReg(R0)  returns 0x00000000 (0000ms, 0446ms total)
T0534 001:487 JLINK_WriteMem(0x20000000, 0x0180 Bytes, ...) - Data: 00 BE 0A E0 0D 78 2D 06 68 40 08 24 40 00 00 D3 ... -- CPU_WriteMem(384 bytes @ 0x20000000)  returns 0x180 (0011ms, 0457ms total)
T0534 001:498 JLINK_WriteReg(R0, 0x08000000)  returns 0x00 (0000ms, 0457ms total)
T0534 001:498 JLINK_WriteReg(R1, 0x00B71B00)  returns 0x00 (0000ms, 0457ms total)
T0534 001:498 JLINK_WriteReg(R2, 0x00000002)  returns 0x00 (0000ms, 0457ms total)
T0534 001:498 JLINK_WriteReg(R3, 0x00000000)  returns 0x00 (0000ms, 0457ms total)
T0534 001:498 JLINK_WriteReg(R4, 0x00000000)  returns 0x00 (0000ms, 0457ms total)
T0534 001:499 JLINK_WriteReg(R5, 0x00000000)  returns 0x00 (0000ms, 0458ms total)
T0534 001:499 JLINK_WriteReg(R6, 0x00000000)  returns 0x00 (0000ms, 0458ms total)
T0534 001:499 JLINK_WriteReg(R7, 0x00000000)  returns 0x00 (0000ms, 0458ms total)
T0534 001:499 JLINK_WriteReg(R8, 0x00000000)  returns 0x00 (0000ms, 0458ms total)
T0534 001:499 JLINK_WriteReg(R9, 0x2000017C)  returns 0x00 (0000ms, 0458ms total)
T0534 001:499 JLINK_WriteReg(R10, 0x00000000)  returns 0x00 (0000ms, 0458ms total)
T0534 001:499 JLINK_WriteReg(R11, 0x00000000)  returns 0x00 (0000ms, 0458ms total)
T0534 001:499 JLINK_WriteReg(R12, 0x00000000)  returns 0x00 (0001ms, 0459ms total)
T0534 001:500 JLINK_WriteReg(R13 (SP), 0x20001000)  returns 0x00 (0000ms, 0459ms total)
T0534 001:500 JLINK_WriteReg(R14, 0x20000001)  returns 0x00 (0000ms, 0459ms total)
T0534 001:500 JLINK_WriteReg(R15 (PC), 0x20000054)  returns 0x00 (0000ms, 0459ms total)
T0534 001:500 JLINK_WriteReg(XPSR, 0x01000000)  returns 0x00 (0000ms, 0459ms total)
T0534 001:500 JLINK_WriteReg(MSP, 0x20001000)  returns 0x00 (0000ms, 0459ms total)
T0534 001:500 JLINK_WriteReg(PSP, 0x20001000)  returns 0x00 (0000ms, 0459ms total)
T0534 001:500 JLINK_WriteReg(CFBP, 0x00000000)  returns 0x00 (0000ms, 0459ms total)
T0534 001:500 JLINK_SetBPEx(Addr = 0x20000000, Type = 0xFFFFFFF2) -- CPU_ReadMem(2 bytes @ 0x20000000)  returns 0x00000007 (0001ms, 0460ms total)
T0534 001:501 JLINK_Go() -- CPU_WriteMem(2 bytes @ 0x20000000) -- CPU_ReadMem(4 bytes @ 0xE0001000) (0006ms, 0466ms total)
T0534 001:507 JLINK_IsHalted() -- CPU_ReadMem(2 bytes @ 0x20000000)  returns TRUE (0012ms, 0478ms total)
T0534 001:520 JLINK_ReadReg(R15 (PC))  returns 0x20000000 (0000ms, 0466ms total)
T0534 001:520 JLINK_ClrBPEx(BPHandle = 0x00000007)  returns 0x00 (0000ms, 0466ms total)
T0534 001:520 JLINK_ReadReg(R0)  returns 0x00000000 (0000ms, 0466ms total)
T0534 001:520 JLINK_WriteMem(0x20000180, 0x0400 Bytes, ...) - Data: 48 1D 00 20 69 02 00 08 7B 26 00 08 EB 23 00 08 ... -- CPU_WriteMem(1024 bytes @ 0x20000180)  returns 0x400 (0026ms, 0492ms total)
T0534 001:546 JLINK_WriteReg(R0, 0x08000000)  returns 0x00 (0000ms, 0492ms total)
T0534 001:546 JLINK_WriteReg(R1, 0x00000400)  returns 0x00 (0000ms, 0492ms total)
T0534 001:546 JLINK_WriteReg(R2, 0x20000180)  returns 0x00 (0000ms, 0492ms total)
T0534 001:546 JLINK_WriteReg(R3, 0x00000000)  returns 0x00 (0000ms, 0492ms total)
T0534 001:546 JLINK_WriteReg(R4, 0x00000000)  returns 0x00 (0001ms, 0493ms total)
T0534 001:547 JLINK_WriteReg(R5, 0x00000000)  returns 0x00 (0000ms, 0493ms total)
T0534 001:547 JLINK_WriteReg(R6, 0x00000000)  returns 0x00 (0000ms, 0493ms total)
T0534 001:547 JLINK_WriteReg(R7, 0x00000000)  returns 0x00 (0000ms, 0493ms total)
T0534 001:547 JLINK_WriteReg(R8, 0x00000000)  returns 0x00 (0000ms, 0493ms total)
T0534 001:547 JLINK_WriteReg(R9, 0x2000017C)  returns 0x00 (0000ms, 0493ms total)
T0534 001:547 JLINK_WriteReg(R10, 0x00000000)  returns 0x00 (0000ms, 0493ms total)
T0534 001:547 JLINK_WriteReg(R11, 0x00000000)  returns 0x00 (0000ms, 0493ms total)
T0534 001:547 JLINK_WriteReg(R12, 0x00000000)  returns 0x00 (0000ms, 0493ms total)
T0534 001:547 JLINK_WriteReg(R13 (SP), 0x20001000)  returns 0x00 (0000ms, 0493ms total)
T0534 001:547 JLINK_WriteReg(R14, 0x20000001)  returns 0x00 (0000ms, 0493ms total)
T0534 001:547 JLINK_WriteReg(R15 (PC), 0x20000108)  returns 0x00 (0000ms, 0493ms total)
T0534 001:547 JLINK_WriteReg(XPSR, 0x01000000)  returns 0x00 (0000ms, 0493ms total)
T0534 001:548 JLINK_WriteReg(MSP, 0x20001000)  returns 0x00 (0000ms, 0494ms total)
T0534 001:548 JLINK_WriteReg(PSP, 0x20001000)  returns 0x00 (0000ms, 0494ms total)
T0534 001:548 JLINK_WriteReg(CFBP, 0x00000000)  returns 0x00 (0000ms, 0494ms total)
T0534 001:548 JLINK_SetBPEx(Addr = 0x20000000, Type = 0xFFFFFFF2)  returns 0x00000008 (0000ms, 0494ms total)
T0534 001:548 JLINK_Go() -- CPU_ReadMem(4 bytes @ 0xE0001000) (0005ms, 0499ms total)
T0534 001:553 JLINK_IsHalted()  returns FALSE (0001ms, 0500ms total)
T0534 001:596 JLINK_IsHalted() -- CPU_ReadMem(2 bytes @ 0x20000000)  returns TRUE (0012ms, 0511ms total)
T0534 001:608 JLINK_ReadReg(R15 (PC))  returns 0x20000000 (0000ms, 0499ms total)
T0534 001:608 JLINK_ClrBPEx(BPHandle = 0x00000008)  returns 0x00 (0000ms, 0499ms total)
T0534 001:608 JLINK_ReadReg(R0)  returns 0x00000000 (0000ms, 0499ms total)
T0534 001:609 JLINK_WriteMem(0x20000180, 0x0400 Bytes, ...) - Data: 11 F8 01 3B 11 F8 01 CB 48 BF 11 F8 01 2B 24 BF ... -- CPU_WriteMem(1024 bytes @ 0x20000180)  returns 0x400 (0024ms, 0523ms total)
T0534 001:633 JLINK_WriteReg(R0, 0x08000400)  returns 0x00 (0000ms, 0523ms total)
T0534 001:633 JLINK_WriteReg(R1, 0x00000400)  returns 0x00 (0000ms, 0523ms total)
T0534 001:633 JLINK_WriteReg(R2, 0x20000180)  returns 0x00 (0001ms, 0524ms total)
T0534 001:634 JLINK_WriteReg(R3, 0x00000000)  returns 0x00 (0000ms, 0524ms total)
T0534 001:634 JLINK_WriteReg(R4, 0x00000000)  returns 0x00 (0000ms, 0524ms total)
T0534 001:634 JLINK_WriteReg(R5, 0x00000000)  returns 0x00 (0000ms, 0524ms total)
T0534 001:634 JLINK_WriteReg(R6, 0x00000000)  returns 0x00 (0000ms, 0524ms total)
T0534 001:634 JLINK_WriteReg(R7, 0x00000000)  returns 0x00 (0000ms, 0524ms total)
T0534 001:634 JLINK_WriteReg(R8, 0x00000000)  returns 0x00 (0000ms, 0524ms total)
T0534 001:634 JLINK_WriteReg(R9, 0x2000017C)  returns 0x00 (0000ms, 0524ms total)
T0534 001:634 JLINK_WriteReg(R10, 0x00000000)  returns 0x00 (0000ms, 0524ms total)
T0534 001:634 JLINK_WriteReg(R11, 0x00000000)  returns 0x00 (0000ms, 0524ms total)
T0534 001:634 JLINK_WriteReg(R12, 0x00000000)  returns 0x00 (0000ms, 0524ms total)
T0534 001:634 JLINK_WriteReg(R13 (SP), 0x20001000)  returns 0x00 (0000ms, 0524ms total)
T0534 001:634 JLINK_WriteReg(R14, 0x20000001)  returns 0x00 (0001ms, 0525ms total)
T0534 001:635 JLINK_WriteReg(R15 (PC), 0x20000108)  returns 0x00 (0000ms, 0525ms total)
T0534 001:635 JLINK_WriteReg(XPSR, 0x01000000)  returns 0x00 (0000ms, 0525ms total)
T0534 001:635 JLINK_WriteReg(MSP, 0x20001000)  returns 0x00 (0000ms, 0525ms total)
T0534 001:635 JLINK_WriteReg(PSP, 0x20001000)  returns 0x00 (0000ms, 0525ms total)
T0534 001:635 JLINK_WriteReg(CFBP, 0x00000000)  returns 0x00 (0000ms, 0525ms total)
T0534 001:635 JLINK_SetBPEx(Addr = 0x20000000, Type = 0xFFFFFFF2)  returns 0x00000009 (0000ms, 0525ms total)
T0534 001:635 JLINK_Go() -- CPU_ReadMem(4 bytes @ 0xE0001000) (0006ms, 0531ms total)
T0534 001:641 JLINK_IsHalted()  returns FALSE (0001ms, 0532ms total)
T0534 001:677 JLINK_IsHalted() -- CPU_ReadMem(2 bytes @ 0x20000000)  returns TRUE (0012ms, 0543ms total)
T0534 001:689 JLINK_ReadReg(R15 (PC))  returns 0x20000000 (0000ms, 0531ms total)
T0534 001:689 JLINK_ClrBPEx(BPHandle = 0x00000009)  returns 0x00 (0000ms, 0531ms total)
T0534 001:689 JLINK_ReadReg(R0)  returns 0x00000000 (0001ms, 0532ms total)
T0534 001:690 JLINK_WriteMem(0x20000180, 0x0400 Bytes, ...) - Data: A5 40 1D 60 8D 68 4F F4 C0 73 9D B1 CE 68 35 43 ... -- CPU_WriteMem(1024 bytes @ 0x20000180)  returns 0x400 (0027ms, 0559ms total)
T0534 001:717 JLINK_WriteReg(R0, 0x08000800)  returns 0x00 (0000ms, 0559ms total)
T0534 001:717 JLINK_WriteReg(R1, 0x00000400)  returns 0x00 (0000ms, 0559ms total)
T0534 001:717 JLINK_WriteReg(R2, 0x20000180)  returns 0x00 (0000ms, 0559ms total)
T0534 001:717 JLINK_WriteReg(R3, 0x00000000)  returns 0x00 (0000ms, 0559ms total)
T0534 001:717 JLINK_WriteReg(R4, 0x00000000)  returns 0x00 (0000ms, 0559ms total)
T0534 001:717 JLINK_WriteReg(R5, 0x00000000)  returns 0x00 (0000ms, 0559ms total)
T0534 001:717 JLINK_WriteReg(R6, 0x00000000)  returns 0x00 (0000ms, 0559ms total)
T0534 001:717 JLINK_WriteReg(R7, 0x00000000)  returns 0x00 (0000ms, 0559ms total)
T0534 001:717 JLINK_WriteReg(R8, 0x00000000)  returns 0x00 (0000ms, 0559ms total)
T0534 001:717 JLINK_WriteReg(R9, 0x2000017C)  returns 0x00 (0000ms, 0559ms total)
T0534 001:717 JLINK_WriteReg(R10, 0x00000000)  returns 0x00 (0000ms, 0559ms total)
T0534 001:717 JLINK_WriteReg(R11, 0x00000000)  returns 0x00 (0000ms, 0559ms total)
T0534 001:717 JLINK_WriteReg(R12, 0x00000000)  returns 0x00 (0000ms, 0559ms total)
T0534 001:717 JLINK_WriteReg(R13 (SP), 0x20001000)  returns 0x00 (0000ms, 0559ms total)
T0534 001:717 JLINK_WriteReg(R14, 0x20000001)  returns 0x00 (0000ms, 0559ms total)
T0534 001:717 JLINK_WriteReg(R15 (PC), 0x20000108)  returns 0x00 (0000ms, 0559ms total)
T0534 001:717 JLINK_WriteReg(XPSR, 0x01000000)  returns 0x00 (0000ms, 0559ms total)
T0534 001:717 JLINK_WriteReg(MSP, 0x20001000)  returns 0x00 (0000ms, 0559ms total)
T0534 001:717 JLINK_WriteReg(PSP, 0x20001000)  returns 0x00 (0000ms, 0559ms total)
T0534 001:717 JLINK_WriteReg(CFBP, 0x00000000)  returns 0x00 (0001ms, 0560ms total)
T0534 001:718 JLINK_SetBPEx(Addr = 0x20000000, Type = 0xFFFFFFF2)  returns 0x0000000A (0000ms, 0560ms total)
T0534 001:718 JLINK_Go() -- CPU_ReadMem(4 bytes @ 0xE0001000) (0007ms, 0567ms total)
T0534 001:725 JLINK_IsHalted()  returns FALSE (0000ms, 0567ms total)
T0534 001:729 JLINK_IsHalted() -- CPU_ReadMem(2 bytes @ 0x20000000)  returns TRUE (0013ms, 0580ms total)
T0534 001:742 JLINK_ReadReg(R15 (PC))  returns 0x20000000 (0000ms, 0567ms total)
T0534 001:742 JLINK_ClrBPEx(BPHandle = 0x0000000A)  returns 0x00 (0000ms, 0567ms total)
T0534 001:742 JLINK_ReadReg(R0)  returns 0x00000000 (0000ms, 0567ms total)
T0534 001:742 JLINK_WriteMem(0x20000180, 0x0400 Bytes, ...) - Data: 01 D5 44 F0 02 04 70 05 04 D5 5F EA 48 70 01 D5 ... -- CPU_WriteMem(1024 bytes @ 0x20000180)  returns 0x400 (0026ms, 0593ms total)
T0534 001:768 JLINK_WriteReg(R0, 0x08000C00)  returns 0x00 (0000ms, 0593ms total)
T0534 001:768 JLINK_WriteReg(R1, 0x00000400)  returns 0x00 (0000ms, 0593ms total)
T0534 001:768 JLINK_WriteReg(R2, 0x20000180)  returns 0x00 (0000ms, 0593ms total)
T0534 001:768 JLINK_WriteReg(R3, 0x00000000)  returns 0x00 (0000ms, 0593ms total)
T0534 001:768 JLINK_WriteReg(R4, 0x00000000)  returns 0x00 (0000ms, 0593ms total)
T0534 001:768 JLINK_WriteReg(R5, 0x00000000)  returns 0x00 (0000ms, 0593ms total)
T0534 001:768 JLINK_WriteReg(R6, 0x00000000)  returns 0x00 (0001ms, 0594ms total)
T0534 001:769 JLINK_WriteReg(R7, 0x00000000)  returns 0x00 (0000ms, 0594ms total)
T0534 001:769 JLINK_WriteReg(R8, 0x00000000)  returns 0x00 (0000ms, 0594ms total)
T0534 001:769 JLINK_WriteReg(R9, 0x2000017C)  returns 0x00 (0000ms, 0594ms total)
T0534 001:769 JLINK_WriteReg(R10, 0x00000000)  returns 0x00 (0000ms, 0594ms total)
T0534 001:769 JLINK_WriteReg(R11, 0x00000000)  returns 0x00 (0000ms, 0594ms total)
T0534 001:769 JLINK_WriteReg(R12, 0x00000000)  returns 0x00 (0000ms, 0594ms total)
T0534 001:769 JLINK_WriteReg(R13 (SP), 0x20001000)  returns 0x00 (0000ms, 0594ms total)
T0534 001:769 JLINK_WriteReg(R14, 0x20000001)  returns 0x00 (0000ms, 0594ms total)
T0534 001:769 JLINK_WriteReg(R15 (PC), 0x20000108)  returns 0x00 (0000ms, 0594ms total)
T0534 001:769 JLINK_WriteReg(XPSR, 0x01000000)  returns 0x00 (0000ms, 0594ms total)
T0534 001:769 JLINK_WriteReg(MSP, 0x20001000)  returns 0x00 (0000ms, 0594ms total)
T0534 001:769 JLINK_WriteReg(PSP, 0x20001000)  returns 0x00 (0000ms, 0594ms total)
T0534 001:769 JLINK_WriteReg(CFBP, 0x00000000)  returns 0x00 (0000ms, 0594ms total)
T0534 001:770 JLINK_SetBPEx(Addr = 0x20000000, Type = 0xFFFFFFF2)  returns 0x0000000B (0000ms, 0595ms total)
T0534 001:770 JLINK_Go() -- CPU_ReadMem(4 bytes @ 0xE0001000) (0006ms, 0601ms total)
T0534 001:776 JLINK_IsHalted()  returns FALSE (0001ms, 0602ms total)
T0534 001:807 JLINK_IsHalted() -- CPU_ReadMem(2 bytes @ 0x20000000)  returns TRUE (0012ms, 0613ms total)
T0534 001:819 JLINK_ReadReg(R15 (PC))  returns 0x20000000 (0000ms, 0601ms total)
T0534 001:819 JLINK_ClrBPEx(BPHandle = 0x0000000B)  returns 0x00 (0000ms, 0601ms total)
T0534 001:819 JLINK_ReadReg(R0)  returns 0x00000000 (0000ms, 0601ms total)
T0534 001:820 JLINK_WriteMem(0x20000180, 0x0400 Bytes, ...) - Data: 68 80 60 89 21 7A 40 EA 01 20 A8 80 88 E7 20 88 ... -- CPU_WriteMem(1024 bytes @ 0x20000180)  returns 0x400 (0025ms, 0626ms total)
T0534 001:845 JLINK_WriteReg(R0, 0x08001000)  returns 0x00 (0000ms, 0626ms total)
T0534 001:845 JLINK_WriteReg(R1, 0x00000400)  returns 0x00 (0000ms, 0626ms total)
T0534 001:845 JLINK_WriteReg(R2, 0x20000180)  returns 0x00 (0000ms, 0626ms total)
T0534 001:846 JLINK_WriteReg(R3, 0x00000000)  returns 0x00 (0000ms, 0627ms total)
T0534 001:846 JLINK_WriteReg(R4, 0x00000000)  returns 0x00 (0000ms, 0627ms total)
T0534 001:846 JLINK_WriteReg(R5, 0x00000000)  returns 0x00 (0000ms, 0627ms total)
T0534 001:846 JLINK_WriteReg(R6, 0x00000000)  returns 0x00 (0000ms, 0627ms total)
T0534 001:846 JLINK_WriteReg(R7, 0x00000000)  returns 0x00 (0000ms, 0627ms total)
T0534 001:846 JLINK_WriteReg(R8, 0x00000000)  returns 0x00 (0000ms, 0627ms total)
T0534 001:846 JLINK_WriteReg(R9, 0x2000017C)  returns 0x00 (0000ms, 0627ms total)
T0534 001:846 JLINK_WriteReg(R10, 0x00000000)  returns 0x00 (0000ms, 0627ms total)
T0534 001:846 JLINK_WriteReg(R11, 0x00000000)  returns 0x00 (0000ms, 0627ms total)
T0534 001:846 JLINK_WriteReg(R12, 0x00000000)  returns 0x00 (0000ms, 0627ms total)
T0534 001:846 JLINK_WriteReg(R13 (SP), 0x20001000)  returns 0x00 (0000ms, 0627ms total)
T0534 001:846 JLINK_WriteReg(R14, 0x20000001)  returns 0x00 (0000ms, 0627ms total)
T0534 001:846 JLINK_WriteReg(R15 (PC), 0x20000108)  returns 0x00 (0001ms, 0628ms total)
T0534 001:847 JLINK_WriteReg(XPSR, 0x01000000)  returns 0x00 (0000ms, 0628ms total)
T0534 001:847 JLINK_WriteReg(MSP, 0x20001000)  returns 0x00 (0000ms, 0628ms total)
T0534 001:847 JLINK_WriteReg(PSP, 0x20001000)  returns 0x00 (0000ms, 0628ms total)
T0534 001:847 JLINK_WriteReg(CFBP, 0x00000000)  returns 0x00 (0000ms, 0628ms total)
T0534 001:847 JLINK_SetBPEx(Addr = 0x20000000, Type = 0xFFFFFFF2)  returns 0x0000000C (0000ms, 0628ms total)
T0534 001:847 JLINK_Go() -- CPU_ReadMem(4 bytes @ 0xE0001000) (0005ms, 0633ms total)
T0534 001:852 JLINK_IsHalted()  returns FALSE (0001ms, 0634ms total)
T0534 001:855 JLINK_IsHalted()  returns FALSE (0001ms, 0634ms total)
T0534 001:892 JLINK_IsHalted() -- CPU_ReadMem(2 bytes @ 0x20000000)  returns TRUE (0011ms, 0644ms total)
T0534 001:903 JLINK_ReadReg(R15 (PC))  returns 0x20000000 (0000ms, 0633ms total)
T0534 001:903 JLINK_ClrBPEx(BPHandle = 0x0000000C)  returns 0x00 (0000ms, 0633ms total)
T0534 001:903 JLINK_ReadReg(R0)  returns 0x00000000 (0000ms, 0633ms total)
T0534 001:904 JLINK_WriteMem(0x20000180, 0x0400 Bytes, ...) - Data: 06 FA 0C F7 BC 43 0F 79 07 F0 03 07 07 FA 0C F7 ... -- CPU_WriteMem(1024 bytes @ 0x20000180)  returns 0x400 (0025ms, 0658ms total)
T0534 001:929 JLINK_WriteReg(R0, 0x08001400)  returns 0x00 (0000ms, 0658ms total)
T0534 001:929 JLINK_WriteReg(R1, 0x00000400)  returns 0x00 (0001ms, 0659ms total)
T0534 001:930 JLINK_WriteReg(R2, 0x20000180)  returns 0x00 (0000ms, 0659ms total)
T0534 001:930 JLINK_WriteReg(R3, 0x00000000)  returns 0x00 (0000ms, 0659ms total)
T0534 001:930 JLINK_WriteReg(R4, 0x00000000)  returns 0x00 (0000ms, 0659ms total)
T0534 001:930 JLINK_WriteReg(R5, 0x00000000)  returns 0x00 (0000ms, 0659ms total)
T0534 001:930 JLINK_WriteReg(R6, 0x00000000)  returns 0x00 (0000ms, 0659ms total)
T0534 001:930 JLINK_WriteReg(R7, 0x00000000)  returns 0x00 (0000ms, 0659ms total)
T0534 001:930 JLINK_WriteReg(R8, 0x00000000)  returns 0x00 (0000ms, 0659ms total)
T0534 001:930 JLINK_WriteReg(R9, 0x2000017C)  returns 0x00 (0000ms, 0659ms total)
T0534 001:930 JLINK_WriteReg(R10, 0x00000000)  returns 0x00 (0000ms, 0659ms total)
